time	V(v_rl)	V(vi)
0.000000000000000e+000	0.000000e+000	0.000000e+000
6.782555697706687e-008	8.457883e-005	1.065401e-004
1.356511139541337e-007	1.577043e-004	2.130803e-004
2.034766709312006e-007	2.193763e-004	3.196204e-004
2.713022279082675e-007	2.695950e-004	4.261605e-004
3.391277848853344e-007	3.083603e-004	5.327007e-004
4.069533418624012e-007	3.356721e-004	6.392408e-004
4.747788988394679e-007	3.515306e-004	7.457809e-004
8.708545534496704e-007	4.126947e-004	1.367935e-003
2.543037819742839e-006	4.434365e-004	3.994594e-003
1.422427509913090e-005	5.331290e-004	2.234333e-002
2.422427509913091e-005	6.358536e-004	3.805094e-002
3.422427509913090e-005	7.695429e-004	5.375820e-002
4.422427509913090e-005	9.469773e-004	6.946492e-002
5.422427509913090e-005	1.182688e-003	8.517096e-002
6.422427509913091e-005	1.495675e-003	1.008762e-001
7.422427509913091e-005	1.910476e-003	1.165804e-001
8.422427509913091e-005	2.458294e-003	1.322834e-001
9.422427509913091e-005	3.178010e-003	1.479852e-001
1.042242750991309e-004	4.116738e-003	1.636855e-001
1.142242750991309e-004	5.329186e-003	1.793841e-001
1.242242750991309e-004	6.876930e-003	1.950810e-001
1.342242750991309e-004	8.827115e-003	2.107760e-001
1.442242750991309e-004	1.124839e-002	2.264689e-001
1.542242750991309e-004	1.420567e-002	2.421596e-001
1.642242750991309e-004	1.775512e-002	2.578478e-001
1.742242750991309e-004	2.193966e-002	2.735336e-001
1.842242750991309e-004	2.678614e-002	2.892166e-001
1.942242750991309e-004	3.230430e-002	3.048967e-001
2.042242750991309e-004	3.848785e-002	3.205739e-001
2.142242750991309e-004	4.531687e-002	3.362479e-001
2.242242750991309e-004	5.276105e-002	3.519186e-001
2.342242750991309e-004	6.078307e-002	3.675858e-001
2.442242750991309e-004	6.934173e-002	3.832494e-001
2.542242750991309e-004	7.839442e-002	3.989092e-001
2.742242750991310e-004	9.781506e-002	4.302168e-001
2.942242750991310e-004	1.187332e-001	4.615074e-001
3.242242750991311e-004	1.523471e-001	5.084088e-001
3.499385608134169e-004	1.832566e-001	5.485808e-001
3.756528465277027e-004	2.148910e-001	5.887104e-001
4.013671322419885e-004	2.472503e-001	6.287977e-001
4.270814179562742e-004	2.803345e-001	6.688426e-001
4.527957036705601e-004	3.141435e-001	7.088453e-001
4.785099893848459e-004	3.486775e-001	7.488055e-001
5.042242750991316e-004	3.839364e-001	7.887235e-001
5.827957036705604e-004	4.937878e-001	9.105278e-001
6.613671322419892e-004	6.041428e-001	1.031594e+000
7.399385608134179e-004	7.150014e-001	1.151923e+000
8.185099893848469e-004	8.263636e-001	1.271514e+000
8.970814179562756e-004	9.382294e-001	1.390367e+000
9.756528465277044e-004	1.050599e+000	1.508482e+000
1.054224275099133e-003	1.163472e+000	1.625859e+000
1.252795703670562e-003	1.447426e+000	1.920092e+000
1.451367132241991e-003	1.722393e+000	2.204207e+000
1.649938560813421e-003	1.988374e+000	2.478206e+000
1.848509989384850e-003	2.245369e+000	2.742089e+000
2.047081417956279e-003	2.493376e+000	2.995854e+000
2.245652846527708e-003	2.732398e+000	3.239503e+000
2.444224275099137e-003	2.962432e+000	3.473034e+000
2.784224275099138e-003	3.320237e+000	3.836714e+000
3.211367132241984e-003	3.717709e+000	4.239596e+000
3.638509989384831e-003	4.030427e+000	4.556569e+000
4.065652846527678e-003	4.258389e+000	4.787635e+000
4.492795703670525e-003	4.401595e+000	4.932792e+000
4.919938560813372e-003	4.460046e+000	4.992041e+000
5.347081417956218e-003	4.433741e+000	4.965382e+000
5.774224275099065e-003	4.322681e+000	4.852814e+000
5.784224275099064e-003	4.318919e+000	4.849007e+000
6.091367132241909e-003	4.174526e+000	4.703233e+000
6.398509989384754e-003	3.992570e+000	4.519044e+000
6.705652846527598e-003	3.773050e+000	4.296440e+000
7.012795703670444e-003	3.515966e+000	4.035421e+000
7.319938560813288e-003	3.221319e+000	3.735987e+000
7.627081417956132e-003	2.889108e+000	3.398138e+000
7.934224275098977e-003	2.519334e+000	3.021873e+000
8.054224275098972e-003	2.369437e+000	2.869012e+000
8.174224275098967e-003	2.216464e+000	2.712644e+000
8.294224275098962e-003	2.060415e+000	2.552769e+000
8.414224275098957e-003	1.901291e+000	2.389388e+000
8.534224275098952e-003	1.739091e+000	2.222499e+000
8.654224275098947e-003	1.573816e+000	2.052104e+000
8.774224275098943e-003	1.405465e+000	1.878203e+000
8.784224275098942e-003	1.391410e+000	1.863636e+000
8.878509989384652e-003	1.257257e+000	1.725096e+000
8.972795703670364e-003	1.123149e+000	1.585353e+000
9.067081417956074e-003	9.890874e-001	1.444406e+000
9.161367132241784e-003	8.550720e-001	1.302255e+000
9.255652846527495e-003	7.211028e-001	1.158900e+000
9.349938560813205e-003	5.871797e-001	1.014342e+000
9.444224275098915e-003	4.533027e-001	8.685793e-001
9.474224275098914e-003	4.113496e-001	8.221238e-001
9.504224275098913e-003	3.701098e-001	7.756056e-001
9.534224275098912e-003	3.295835e-001	7.290247e-001
9.564224275098910e-003	2.897706e-001	6.823811e-001
9.594224275098909e-003	2.506712e-001	6.356748e-001
9.624224275098908e-003	2.122851e-001	5.889059e-001
9.654224275098907e-003	1.746125e-001	5.420743e-001
9.684224275098905e-003	1.390402e-001	4.952049e-001
9.714224275098904e-003	1.056690e-001	4.482916e-001
9.734224275098903e-003	8.503726e-002	4.169936e-001
9.744224275098903e-003	7.532053e-002	4.013384e-001
9.754224275098903e-003	6.606399e-002	3.856792e-001
9.764224275098902e-003	5.731796e-002	3.700162e-001
9.774224275098902e-003	4.913516e-002	3.543495e-001
9.784224275098901e-003	4.156849e-002	3.386793e-001
9.794224275098901e-003	3.466753e-002	3.230059e-001
9.804224275098901e-003	2.847372e-002	3.073292e-001
9.814224275098900e-003	2.301461e-002	2.916495e-001
9.824224275098900e-003	1.829809e-002	2.759669e-001
9.834224275098899e-003	1.430832e-002	2.602816e-001
9.844224275098899e-003	1.100486e-002	2.445937e-001
9.854224275098899e-003	8.325868e-003	2.289034e-001
9.864224275098898e-003	6.194809e-003	2.132108e-001
9.874224275098898e-003	4.528634e-003	1.975161e-001
9.884224275098897e-003	3.245395e-003	1.818195e-001
9.894224275098897e-003	2.269683e-003	1.661211e-001
9.904224275098897e-003	1.535128e-003	1.504211e-001
9.914224275098896e-003	9.860671e-004	1.347196e-001
9.924224275098896e-003	5.782855e-004	1.190167e-001
9.934224275098895e-003	2.772811e-004	1.033127e-001
9.944224275098895e-003	5.634430e-005	8.760761e-002
9.954224275098894e-003	-1.049001e-004	7.190169e-002
9.964224275098894e-003	-2.218595e-004	5.619506e-002
9.974224275098894e-003	-3.060848e-004	4.048787e-002
9.994224275098893e-003	-4.085953e-004	9.072460e-003
1.002422427509889e-002	-4.710256e-004	-3.805094e-002
1.005422427509889e-002	-4.742242e-004	-8.518142e-002
1.008422427509889e-002	-4.744882e-004	-1.322939e-001
1.011422427509889e-002	-4.718177e-004	-1.793883e-001
1.014422427509889e-002	-4.662125e-004	-2.264647e-001
1.017422427509889e-002	-4.576727e-004	-2.735231e-001
1.020422427509888e-002	-4.461984e-004	-3.205634e-001
1.023422427509888e-002	-4.317894e-004	-3.675858e-001
1.039422427509888e-002	-3.996908e-004	-6.192063e-001
1.055422427509887e-002	-3.717805e-004	-8.677165e-001
1.071422427509886e-002	-3.480586e-004	-1.113116e+000
1.087422427509886e-002	-3.285252e-004	-1.355406e+000
1.103422427509885e-002	-3.131802e-004	-1.594585e+000
1.119422427509884e-002	-3.020235e-004	-1.830654e+000
1.135422427509884e-002	-2.950553e-004	-2.063612e+000
1.178422427509882e-002	-2.709235e-004	-2.658172e+000
1.209136713224166e-002	-2.565628e-004	-3.061117e+000
1.239850998938451e-002	-2.427117e-004	-3.428040e+000
1.270565284652736e-002	-2.293704e-004	-3.758942e+000
1.301279570367020e-002	-2.165387e-004	-4.053821e+000
1.331993856081304e-002	-2.042168e-004	-4.312679e+000
1.362708141795589e-002	-1.924045e-004	-4.535516e+000
1.393422427509873e-002	-1.811019e-004	-4.722330e+000
1.405422427509873e-002	-1.765710e-004	-4.781046e+000
1.417422427509872e-002	-1.720493e-004	-4.832813e+000
1.429422427509872e-002	-1.675367e-004	-4.877631e+000
1.441422427509871e-002	-1.630331e-004	-4.915501e+000
1.453422427509871e-002	-1.585387e-004	-4.946421e+000
1.465422427509870e-002	-1.540534e-004	-4.970393e+000
1.477422427509870e-002	-1.495772e-004	-4.987415e+000
1.478422427509870e-002	-1.492039e-004	-4.988504e+000
1.517708141795583e-002	-1.348195e-004	-4.985207e+000
1.556993856081295e-002	-1.201699e-004	-4.912000e+000
1.596279570367008e-002	-1.052549e-004	-4.768882e+000
1.635565284652721e-002	-9.007470e-005	-4.555854e+000
1.674850998938433e-002	-7.462920e-005	-4.272916e+000
1.714136713224146e-002	-5.891843e-005	-3.920067e+000
1.753422427509859e-002	-4.294239e-005	-3.497308e+000
1.778422427509858e-002	-3.196140e-005	-3.206167e+000
1.799850998938428e-002	-2.334032e-005	-2.937461e+000
1.821279570366999e-002	-1.298977e-005	-2.658740e+000
1.842708141795570e-002	-9.097455e-007	-2.370001e+000
1.864136713224140e-002	1.289976e-005	-2.071247e+000
1.885565284652711e-002	2.843873e-005	-1.762476e+000
1.906993856081281e-002	4.570718e-005	-1.443688e+000
1.928422427509852e-002	6.470511e-005	-1.114884e+000
1.937279570366994e-002	7.067623e-005	-9.785785e-001
1.946136713224137e-002	8.164601e-005	-8.417815e-001
1.954993856081279e-002	9.761445e-005	-7.044929e-001
1.963850998938422e-002	1.185815e-004	-5.667125e-001
1.972708141795564e-002	1.445473e-004	-4.284404e-001
1.981565284652707e-002	1.755117e-004	-2.896766e-001
1.990422427509849e-002	2.114748e-004	-1.504211e-001
1.991708141795563e-002	2.171786e-004	-1.302323e-001
1.992993856081278e-002	2.299609e-004	-1.100423e-001
1.994279570366992e-002	2.498217e-004	-8.985091e-002
1.995565284652706e-002	2.767609e-004	-6.965825e-002
1.996850998938420e-002	3.107786e-004	-4.946429e-002
1.998136713224135e-002	3.518747e-004	-2.926903e-002
1.999422427509849e-002	4.000493e-004	-9.072460e-003
2.001422427509849e-002	5.348910e-004	2.234331e-002
2.002422427509849e-002	6.358533e-004	3.805094e-002
2.003422427509849e-002	7.695431e-004	5.375820e-002
2.004422427509849e-002	9.469771e-004	6.946492e-002
2.005422427509849e-002	1.182688e-003	8.517096e-002
2.006422427509848e-002	1.495675e-003	1.008762e-001
2.007422427509848e-002	1.910476e-003	1.165804e-001
2.008422427509848e-002	2.458294e-003	1.322834e-001
2.009422427509848e-002	3.178010e-003	1.479852e-001
2.010422427509848e-002	4.116738e-003	1.636855e-001
2.011422427509848e-002	5.329186e-003	1.793841e-001
2.012422427509848e-002	6.876930e-003	1.950810e-001
2.013422427509848e-002	8.827115e-003	2.107760e-001
2.014422427509848e-002	1.124839e-002	2.264689e-001
2.015422427509848e-002	1.420567e-002	2.421596e-001
2.016422427509848e-002	1.775512e-002	2.578478e-001
2.017422427509848e-002	2.193966e-002	2.735336e-001
2.018422427509848e-002	2.678614e-002	2.892166e-001
2.019422427509848e-002	3.230430e-002	3.048967e-001
2.020422427509848e-002	3.848785e-002	3.205739e-001
2.021422427509848e-002	4.531687e-002	3.362479e-001
2.022422427509848e-002	5.276105e-002	3.519186e-001
2.023422427509848e-002	6.078307e-002	3.675858e-001
2.024422427509848e-002	6.934173e-002	3.832494e-001
2.025422427509848e-002	7.839442e-002	3.989092e-001
2.027422427509848e-002	9.781506e-002	4.302168e-001
2.029422427509848e-002	1.187332e-001	4.615074e-001
2.032422427509847e-002	1.523471e-001	5.084088e-001
2.034993856081276e-002	1.832566e-001	5.485808e-001
2.037565284652704e-002	2.148910e-001	5.887104e-001
2.040136713224133e-002	2.472503e-001	6.287977e-001
2.042708141795561e-002	2.803345e-001	6.688426e-001
2.045279570366990e-002	3.141435e-001	7.088453e-001
2.047850998938418e-002	3.486775e-001	7.488055e-001
2.050422427509847e-002	3.839364e-001	7.887235e-001
2.054279570366989e-002	4.371978e-001	8.485151e-001
2.058136713224132e-002	4.907849e-001	9.081602e-001
2.061993856081275e-002	5.446977e-001	9.676590e-001
2.065850998938417e-002	5.989361e-001	1.027011e+000
2.069708141795560e-002	6.535003e-001	1.086217e+000
2.073565284652703e-002	7.083901e-001	1.145277e+000
2.077422427509846e-002	7.636056e-001	1.204190e+000
2.078422427509846e-002	7.778844e-001	1.219429e+000
2.093850998938416e-002	1.000914e+000	1.454250e+000
2.109279570366987e-002	1.220507e+000	1.684336e+000
2.124708141795558e-002	1.436665e+000	1.909688e+000
2.140136713224129e-002	1.649388e+000	2.130306e+000
2.155565284652700e-002	1.858674e+000	2.346189e+000
2.170993856081270e-002	2.064526e+000	2.557339e+000
2.186422427509841e-002	2.266941e+000	2.763755e+000
2.213708141795554e-002	2.611924e+000	3.115525e+000
2.240993856081268e-002	2.929504e+000	3.439090e+000
2.268279570366981e-002	3.219683e+000	3.734447e+000
2.295565284652694e-002	3.482461e+000	4.001599e+000
2.322850998938407e-002	3.717837e+000	4.240544e+000
2.350136713224120e-002	3.925811e+000	4.451282e+000
2.377422427509833e-002	4.106383e+000	4.633814e+000
2.378422427509833e-002	4.112188e+000	4.639692e+000
2.421136713224117e-002	4.316465e+000	4.846507e+000
2.463850998938401e-002	4.434008e+000	4.965502e+000
2.506565284652685e-002	4.464816e+000	4.996678e+000
2.549279570366969e-002	4.408891e+000	4.940035e+000
2.591993856081253e-002	4.266232e+000	4.795571e+000
2.634708141795537e-002	4.036838e+000	4.563288e+000
2.677422427509821e-002	3.720711e+000	4.243185e+000
2.678422427509821e-002	3.712494e+000	4.234855e+000
2.703136713224106e-002	3.492045e+000	4.011753e+000
2.727850998938390e-002	3.252371e+000	3.768502e+000
2.752565284652675e-002	2.993473e+000	3.505102e+000
2.777279570366960e-002	2.715351e+000	3.221554e+000
2.801993856081245e-002	2.418004e+000	2.917856e+000
2.826708141795530e-002	2.101432e+000	2.594011e+000
2.851422427509814e-002	1.765637e+000	2.250016e+000
2.863422427509814e-002	1.599352e+000	2.079498e+000
2.875422427509813e-002	1.432024e+000	1.906649e+000
2.887422427509813e-002	1.263652e+000	1.731469e+000
2.899422427509812e-002	1.094235e+000	1.553957e+000
2.911422427509812e-002	9.237741e-001	1.374115e+000
2.923422427509811e-002	7.522692e-001	1.191941e+000
2.935422427509811e-002	5.797203e-001	1.007435e+000
2.939279570366953e-002	5.248265e-001	9.479959e-001
2.943136713224096e-002	4.707115e-001	8.884391e-001
2.946993856081239e-002	4.173751e-001	8.287650e-001
2.950850998938381e-002	3.648174e-001	7.689735e-001
2.954708141795524e-002	3.130384e-001	7.090648e-001
2.958565284652667e-002	2.620380e-001	6.490388e-001
2.962422427509810e-002	2.118163e-001	5.888956e-001
2.963993856081238e-002	1.919375e-001	5.643749e-001
2.965565284652667e-002	1.726479e-001	5.398420e-001
2.967136713224095e-002	1.539474e-001	5.152969e-001
2.968708141795523e-002	1.358361e-001	4.907394e-001
2.970279570366952e-002	1.183140e-001	4.661698e-001
2.971850998938381e-002	1.013811e-001	4.415878e-001
2.973422427509809e-002	8.503726e-002	4.169936e-001
2.974422427509809e-002	7.532053e-002	4.013384e-001
2.975422427509809e-002	6.606399e-002	3.856792e-001
2.976422427509809e-002	5.731796e-002	3.700162e-001
2.977422427509809e-002	4.913516e-002	3.543495e-001
2.978422427509809e-002	4.156849e-002	3.386793e-001
2.979422427509809e-002	3.466753e-002	3.230059e-001
2.980422427509809e-002	2.847372e-002	3.073292e-001
2.981422427509809e-002	2.301461e-002	2.916495e-001
2.982422427509809e-002	1.829809e-002	2.759669e-001
2.983422427509809e-002	1.430832e-002	2.602816e-001
2.984422427509809e-002	1.100486e-002	2.445937e-001
2.985422427509809e-002	8.325868e-003	2.289034e-001
2.986422427509809e-002	6.194809e-003	2.132108e-001
2.987422427509809e-002	4.528634e-003	1.975161e-001
2.988422427509808e-002	3.245395e-003	1.818195e-001
2.989422427509808e-002	2.269683e-003	1.661211e-001
2.990422427509808e-002	1.535128e-003	1.504211e-001
2.991422427509808e-002	9.860671e-004	1.347196e-001
2.992422427509808e-002	5.782855e-004	1.190167e-001
2.993422427509808e-002	2.772811e-004	1.033127e-001
2.994422427509808e-002	5.634430e-005	8.760761e-002
2.995422427509808e-002	-1.049001e-004	7.190169e-002
2.996422427509808e-002	-2.218595e-004	5.619506e-002
2.997422427509808e-002	-3.060848e-004	4.048787e-002
2.999422427509808e-002	-4.085953e-004	9.072460e-003
3.002422427509808e-002	-4.710256e-004	-3.805094e-002
3.005422427509808e-002	-4.742242e-004	-8.518142e-002
3.008422427509808e-002	-4.744882e-004	-1.322939e-001
3.011422427509808e-002	-4.718177e-004	-1.793883e-001
3.014422427509807e-002	-4.662125e-004	-2.264647e-001
3.017422427509807e-002	-4.576727e-004	-2.735231e-001
3.020422427509807e-002	-4.461984e-004	-3.205634e-001
3.023422427509807e-002	-4.317894e-004	-3.675858e-001
3.039422427509807e-002	-3.996908e-004	-6.192063e-001
3.055422427509807e-002	-3.717805e-004	-8.677165e-001
3.071422427509807e-002	-3.480586e-004	-1.113116e+000
3.087422427509807e-002	-3.285252e-004	-1.355406e+000
3.103422427509807e-002	-3.131802e-004	-1.594585e+000
3.119422427509806e-002	-3.020235e-004	-1.830654e+000
3.135422427509806e-002	-2.950553e-004	-2.063612e+000
3.155708141795527e-002	-2.835274e-004	-2.352093e+000
3.175993856081247e-002	-2.725740e-004	-2.628366e+000
3.196279570366968e-002	-2.621949e-004	-2.892432e+000
3.216565284652688e-002	-2.523901e-004	-3.144290e+000
3.236850998938409e-002	-2.431597e-004	-3.383942e+000
3.257136713224129e-002	-2.345037e-004	-3.611386e+000
3.277422427509850e-002	-2.264221e-004	-3.826622e+000
3.278422427509850e-002	-2.260124e-004	-3.836714e+000
3.321136713224149e-002	-2.092441e-004	-4.239596e+000
3.363850998938447e-002	-1.926455e-004	-4.556569e+000
3.406565284652746e-002	-1.762165e-004	-4.787635e+000
3.449279570367046e-002	-1.599572e-004	-4.932792e+000
3.491993856081344e-002	-1.438676e-004	-4.992041e+000
3.534708141795643e-002	-1.279476e-004	-4.965382e+000
3.577422427509942e-002	-1.121973e-004	-4.852814e+000
3.578422427509942e-002	-1.118213e-004	-4.849007e+000
3.610708141795666e-002	-9.997645e-005	-4.693791e+000
3.642993856081390e-002	-8.770049e-005	-4.496667e+000
3.675279570367115e-002	-7.499342e-005	-4.257636e+000
3.707565284652839e-002	-6.185526e-005	-3.976697e+000
3.739850998938563e-002	-4.828600e-005	-3.653851e+000
3.772136713224287e-002	-3.428563e-005	-3.289098e+000
3.804422427510011e-002	-1.985417e-005	-2.882437e+000
3.814850998938586e-002	-1.484668e-005	-2.746681e+000
3.825279570367161e-002	-9.555769e-006	-2.608356e+000
3.835708141795735e-002	-3.981435e-006	-2.467463e+000
3.846136713224310e-002	1.876321e-006	-2.324000e+000
3.856565284652884e-002	8.017500e-006	-2.177970e+000
3.866993856081459e-002	1.444210e-005	-2.029370e+000
3.877422427510033e-002	2.115012e-005	-1.878203e+000
3.878422427510034e-002	2.183107e-005	-1.863636e+000
3.893279570367181e-002	2.829171e-005	-1.643894e+000
3.908136713224329e-002	3.962201e-005	-1.421797e+000
3.922993856081476e-002	5.582197e-005	-1.197343e+000
3.937850998938623e-002	7.689160e-005	-9.705329e-001
3.952708141795771e-002	1.028309e-004	-7.413670e-001
3.967565284652918e-002	1.336398e-004	-5.098450e-001
3.982422427510066e-002	1.693184e-004	-2.759669e-001
3.984565284652923e-002	1.718872e-004	-2.423485e-001
3.986708141795781e-002	1.808088e-004	-2.087230e-001
3.988850998938639e-002	1.960832e-004	-1.750903e-001
3.990993856081497e-002	2.177104e-004	-1.414505e-001
3.993136713224355e-002	2.456903e-004	-1.078034e-001
3.995279570367213e-002	2.800231e-004	-7.414924e-002
3.997422427510070e-002	3.207086e-004	-4.048787e-002
3.999422427510071e-002	3.986426e-004	-9.072467e-003
4.000000000000000e-002	4.281189e-004	-2.449213e-015
